
11:44:38.78500

11:44:38.83600

11:44:38.88700

11:44:38.93800

11:44:39.010 设备发送:05 03 04 84 00 3A 85 44

11:44:39.541 设备发送:05 03 04 84 00 3A 85 44

11:44:40.073 设备发送:06 03 04 84 00 3A 85 77

11:44:40.582 设备发送:06 03 04 84 00 3A 85 77

11:44:41.111 设备发送:06 03 04 84 00 3A 85 77

11:44:41.641 设备发送:01 03 04 84 00 3A 84 C0

11:44:42.173 设备发送:01 03 04 84 00 3A 84 C0

11:44:42.684 设备发送:01 03 04 84 00 3A 84 C0

11:44:43.213 设备发送:02 03 04 84 00 3A 84 F3

11:44:43.743 设备发送:02 03 04 84 00 3A 84 F3

11:44:44.233 设备发送:02 03 04 84 00 3A 84 F3

